(1581668399.053750) can0 123#
(1581668399.054000) can0 123#12
(1581668399.054250) can0 123#1234
(1581668399.054550) can0 123#123456
(1581668399.054850) can0 123#12345678
(1581668399.055200) can0 123#1234567890
(1581668399.056200) can0 123#1234567890AB
(1581668399.056600) can0 123#1234567890ABCD
(1581668399.057050) can0 123#1234567890ABCDEF
(1581668399.057300) can0 12345678#
(1581668399.057650) can0 12345678#12
(1581668399.058000) can0 12345678#1234
(1581668399.058850) can0 12345678#123456
(1581668399.059250) can0 12345678#12345678
(1581668399.059700) can0 12345678#1234567890
(1581668399.060200) can0 12345678#1234567890AB
(1581668399.060650) can0 12345678#1234567890ABCD
(1581668399.061200) can0 12345678#1234567890ABCDEF
(1581668399.062000) can0 123##0
(1581668399.062300) can0 123##012
(1581668399.062600) can0 123##01234
(1581668399.062950) can0 123##0123456
(1581668399.063350) can0 123##012345678
(1581668399.063750) can0 123##01234567890
(1581668399.064750) can0 123##01234567890AB
(1581668399.065200) can0 123##01234567890ABCD
(1581668399.065750) can0 123##01234567890ABCDEF
(1581668399.066350) can0 123##01234567890ABCDEF12345678
(1581668399.067100) can0 123##01234567890ABCDEF1234567890ABCDEF
(1581668399.068000) can0 123##01234567890ABCDEF1234567890ABCDEF12345678
(1581668399.069750) can0 123##01234567890ABCDEF1234567890ABCDEF1234567890ABCDEF
(1581668399.071050) can0 123##01234567890ABCDEF1234567890ABCDEF1234567890ABCDEF1234567890ABCDEF
(1581668399.072850) can0 123##01234567890ABCDEF1234567890ABCDEF1234567890ABCDEF1234567890ABCDEF1234567890ABCDEF1234567890ABCDEF
(1581668399.075150) can0 123##01234567890ABCDEF1234567890ABCDEF1234567890ABCDEF1234567890ABCDEF1234567890ABCDEF1234567890ABCDEF1234567890ABCDEF1234567890ABCDEF
(1581668399.075500) can0 12345678##0
(1581668399.075850) can0 12345678##012
(1581668399.076850) can0 12345678##01234
(1581668399.077300) can0 12345678##0123456
(1581668399.077750) can0 12345678##012345678
(1581668399.078250) can0 12345678##01234567890
(1581668399.078750) can0 12345678##01234567890AB
(1581668399.079300) can0 12345678##01234567890ABCD
(1581668399.080150) can0 12345678##01234567890ABCDEF
(1581668399.080850) can0 12345678##01234567890ABCDEF12345678
(1581668399.081750) can0 12345678##01234567890ABCDEF1234567890ABCDEF
(1581668399.082700) can0 12345678##01234567890ABCDEF1234567890ABCDEF12345678
(1581668399.083850) can0 12345678##01234567890ABCDEF1234567890ABCDEF1234567890ABCDEF
(1581668399.085150) can0 12345678##01234567890ABCDEF1234567890ABCDEF1234567890ABCDEF1234567890ABCDEF
(1581668399.087400) can0 12345678##01234567890ABCDEF1234567890ABCDEF1234567890ABCDEF1234567890ABCDEF1234567890ABCDEF1234567890ABCDEF
(1581668399.089800) can0 12345678##01234567890ABCDEF1234567890ABCDEF1234567890ABCDEF1234567890ABCDEF1234567890ABCDEF1234567890ABCDEF1234567890ABCDEF1234567890ABCDEF
(1581668399.089950) can0 123##1
(1581668399.090100) can0 123##112
(1581668399.090250) can0 123##11234
(1581668399.090450) can0 123##1123456
(1581668399.090900) can0 123##112345678
(1581668399.091150) can0 123##11234567890
(1581668399.091300) can0 123##11234567890AB
(1581668399.091500) can0 123##11234567890ABCD
(1581668399.091750) can0 123##11234567890ABCDEF
(1581668399.092000) can0 123##11234567890ABCDEF12345678
(1581668399.092550) can0 123##11234567890ABCDEF1234567890ABCDEF
(1581668399.092850) can0 123##11234567890ABCDEF1234567890ABCDEF12345678
(1581668399.093200) can0 123##11234567890ABCDEF1234567890ABCDEF1234567890ABCDEF
(1581668399.093650) can0 123##11234567890ABCDEF1234567890ABCDEF1234567890ABCDEF1234567890ABCDEF
(1581668399.094150) can0 123##11234567890ABCDEF1234567890ABCDEF1234567890ABCDEF1234567890ABCDEF1234567890ABCDEF1234567890ABCDEF
(1581668399.094800) can0 123##11234567890ABCDEF1234567890ABCDEF1234567890ABCDEF1234567890ABCDEF1234567890ABCDEF1234567890ABCDEF1234567890ABCDEF1234567890ABCDEF
(1581668399.095300) can0 12345678##1
(1581668399.095500) can0 12345678##112
(1581668399.095750) can0 12345678##11234
(1581668399.096000) can0 12345678##1123456
(1581668399.096300) can0 12345678##112345678
(1581668399.096550) can0 12345678##11234567890
(1581668399.097100) can0 12345678##11234567890AB
(1581668399.097350) can0 12345678##11234567890ABCD
(1581668399.097650) can0 12345678##11234567890ABCDEF
(1581668399.097950) can0 12345678##11234567890ABCDEF12345678
(1581668399.098350) can0 12345678##11234567890ABCDEF1234567890ABCDEF
(1581668399.098700) can0 12345678##11234567890ABCDEF1234567890ABCDEF12345678
(1581668399.099450) can0 12345678##11234567890ABCDEF1234567890ABCDEF1234567890ABCDEF
(1581668399.099900) can0 12345678##11234567890ABCDEF1234567890ABCDEF1234567890ABCDEF1234567890ABCDEF
(1581668399.100500) can0 12345678##11234567890ABCDEF1234567890ABCDEF1234567890ABCDEF1234567890ABCDEF1234567890ABCDEF1234567890ABCDEF
(1581668399.101250) can0 12345678##11234567890ABCDEF1234567890ABCDEF1234567890ABCDEF1234567890ABCDEF1234567890ABCDEF1234567890ABCDEF1234567890ABCDEF1234567890ABCDEF
(1581668407.700250) can1 123#
(1581668407.700450) can1 123#12
(1581668407.701500) can1 123#1234
(1581668407.701800) can1 123#123456
(1581668407.702100) can1 123#12345678
(1581668407.702450) can1 123#1234567890
(1581668407.702850) can1 123#1234567890AB
(1581668407.703250) can1 123#1234567890ABCD
(1581668407.704500) can1 123#1234567890ABCDEF
(1581668407.704750) can1 12345678#
(1581668407.705100) can1 12345678#12
(1581668407.705400) can1 12345678#1234
(1581668407.705800) can1 12345678#123456
(1581668407.706200) can1 12345678#12345678
(1581668407.707350) can1 12345678#1234567890
(1581668407.707800) can1 12345678#1234567890AB
(1581668407.708300) can1 12345678#1234567890ABCD
(1581668407.708850) can1 12345678#1234567890ABCDEF
(1581668407.709100) can1 123##0
(1581668407.709400) can1 123##012
(1581668407.710450) can1 123##01234
(1581668407.710800) can1 123##0123456
(1581668407.711150) can1 123##012345678
(1581668407.711600) can1 123##01234567890
(1581668407.712000) can1 123##01234567890AB
(1581668407.712500) can1 123##01234567890ABCD
(1581668407.713650) can1 123##01234567890ABCDEF
(1581668407.714300) can1 123##01234567890ABCDEF12345678
(1581668407.715050) can1 123##01234567890ABCDEF1234567890ABCDEF
(1581668407.715950) can1 123##01234567890ABCDEF1234567890ABCDEF12345678
(1581668407.717000) can1 123##01234567890ABCDEF1234567890ABCDEF1234567890ABCDEF
(1581668407.718300) can1 123##01234567890ABCDEF1234567890ABCDEF1234567890ABCDEF1234567890ABCDEF
(1581668407.720450) can1 123##01234567890ABCDEF1234567890ABCDEF1234567890ABCDEF1234567890ABCDEF1234567890ABCDEF1234567890ABCDEF
(1581668407.722800) can1 123##01234567890ABCDEF1234567890ABCDEF1234567890ABCDEF1234567890ABCDEF1234567890ABCDEF1234567890ABCDEF1234567890ABCDEF1234567890ABCDEF
(1581668407.723100) can1 12345678##0
(1581668407.723500) can1 12345678##012
(1581668407.723900) can1 12345678##01234
(1581668407.724300) can1 12345678##0123456
(1581668407.725050) can1 12345678##012345678
(1581668407.725500) can1 12345678##01234567890
(1581668407.726050) can1 12345678##01234567890AB
(1581668407.726600) can1 12345678##01234567890ABCD
(1581668407.727150) can1 12345678##01234567890ABCDEF
(1581668407.727850) can1 12345678##01234567890ABCDEF12345678
(1581668407.729000) can1 12345678##01234567890ABCDEF1234567890ABCDEF
(1581668407.730000) can1 12345678##01234567890ABCDEF1234567890ABCDEF12345678
(1581668407.731100) can1 12345678##01234567890ABCDEF1234567890ABCDEF1234567890ABCDEF
(1581668407.732500) can1 12345678##01234567890ABCDEF1234567890ABCDEF1234567890ABCDEF1234567890ABCDEF
(1581668407.734400) can1 12345678##01234567890ABCDEF1234567890ABCDEF1234567890ABCDEF1234567890ABCDEF1234567890ABCDEF1234567890ABCDEF
(1581668407.736750) can1 12345678##01234567890ABCDEF1234567890ABCDEF1234567890ABCDEF1234567890ABCDEF1234567890ABCDEF1234567890ABCDEF1234567890ABCDEF1234567890ABCDEF
(1581668407.737150) can1 123##1
(1581668407.737350) can1 123##112
(1581668407.737500) can1 123##11234
(1581668407.737650) can1 123##1123456
(1581668407.737850) can1 123##112345678
(1581668407.738050) can1 123##11234567890
(1581668407.738550) can1 123##11234567890AB
(1581668407.738750) can1 123##11234567890ABCD
(1581668407.739000) can1 123##11234567890ABCDEF
(1581668407.739250) can1 123##11234567890ABCDEF12345678
(1581668407.739500) can1 123##11234567890ABCDEF1234567890ABCDEF
(1581668407.739800) can1 123##11234567890ABCDEF1234567890ABCDEF12345678
(1581668407.740500) can1 123##11234567890ABCDEF1234567890ABCDEF1234567890ABCDEF
(1581668407.740900) can1 123##11234567890ABCDEF1234567890ABCDEF1234567890ABCDEF1234567890ABCDEF
(1581668407.741400) can1 123##11234567890ABCDEF1234567890ABCDEF1234567890ABCDEF1234567890ABCDEF1234567890ABCDEF1234567890ABCDEF
(1581668407.742100) can1 123##11234567890ABCDEF1234567890ABCDEF1234567890ABCDEF1234567890ABCDEF1234567890ABCDEF1234567890ABCDEF1234567890ABCDEF1234567890ABCDEF
(1581668407.742300) can1 12345678##1
(1581668407.742550) can1 12345678##112
(1581668407.743050) can1 12345678##11234
(1581668407.743300) can1 12345678##1123456
(1581668407.743550) can1 12345678##112345678
(1581668407.743850) can1 12345678##11234567890
(1581668407.744100) can1 12345678##11234567890AB
(1581668407.744400) can1 12345678##11234567890ABCD
(1581668407.744950) can1 12345678##11234567890ABCDEF
(1581668407.745250) can1 12345678##11234567890ABCDEF12345678
(1581668407.745600) can1 12345678##11234567890ABCDEF1234567890ABCDEF
(1581668407.746000) can1 12345678##11234567890ABCDEF1234567890ABCDEF12345678
(1581668407.746450) can1 12345678##11234567890ABCDEF1234567890ABCDEF1234567890ABCDEF
(1581668407.746900) can1 12345678##11234567890ABCDEF1234567890ABCDEF1234567890ABCDEF1234567890ABCDEF
(1581668407.747900) can1 12345678##11234567890ABCDEF1234567890ABCDEF1234567890ABCDEF1234567890ABCDEF1234567890ABCDEF1234567890ABCDEF
(1581668407.748650) can1 12345678##11234567890ABCDEF1234567890ABCDEF1234567890ABCDEF1234567890ABCDEF1234567890ABCDEF1234567890ABCDEF1234567890ABCDEF1234567890ABCDEF
