date Fri Feb 14 08:51:20 am 2020
base hex  timestamps absolute
  348.161550 1 123  Rx d 0 
  348.161750 1 123  Rx d 1 12
  348.162000 1 123  Rx d 2 12 34
  348.162300 1 123  Rx d 3 12 34 56
  348.163200 1 123  Rx d 4 12 34 56 78
  348.163500 1 123  Rx d 5 12 34 56 78 90
  348.163900 1 123  Rx d 6 12 34 56 78 90 AB
  348.164600 1 123  Rx d 7 12 34 56 78 90 AB CD
  348.165050 1 123  Rx d 8 12 34 56 78 90 AB CD EF
  348.165350 1 12345678x Rx d 0 
  348.166350 1 12345678x Rx d 1 12
  348.166700 1 12345678x Rx d 2 12 34
  348.167050 1 12345678x Rx d 3 12 34 56
  348.167450 1 12345678x Rx d 4 12 34 56 78
  348.167900 1 12345678x Rx d 5 12 34 56 78 90
  348.168350 1 12345678x Rx d 6 12 34 56 78 90 AB
  348.169450 1 12345678x Rx d 7 12 34 56 78 90 AB CD
  348.170000 1 12345678x Rx d 8 12 34 56 78 90 AB CD EF
  348.170250 1 123  Rx d 0 
  348.170500 1 123  Rx d 1 12
  348.170850 1 123  Rx d 2 12 34
  348.171150 1 123  Rx d 3 12 34 56
  348.172200 1 123  Rx d 4 12 34 56 78
  348.172600 1 123  Rx d 5 12 34 56 78 90
  348.173050 1 123  Rx d 6 12 34 56 78 90 AB
  348.173500 1 123  Rx d 7 12 34 56 78 90 AB CD
  348.174000 1 123  Rx d 8 12 34 56 78 90 AB CD EF
  348.174650 1 123  Rx d 9 12 34 56 78 90 AB CD EF 12 34 56 78
  348.176050 1 123  Rx d 10 12 34 56 78 90 AB CD EF 12 34 56 78 90 AB CD EF
  348.176950 1 123  Rx d 11 12 34 56 78 90 AB CD EF 12 34 56 78 90 AB CD EF 12 34 56 78
  348.178150 1 123  Rx d 12 12 34 56 78 90 AB CD EF 12 34 56 78 90 AB CD EF 12 34 56 78 90 AB CD EF
  348.179550 1 123  Rx d 13 12 34 56 78 90 AB CD EF 12 34 56 78 90 AB CD EF 12 34 56 78 90 AB CD EF 12 34 56 78 90 AB CD EF
  348.182300 1 123  Rx d 14 12 34 56 78 90 AB CD EF 12 34 56 78 90 AB CD EF 12 34 56 78 90 AB CD EF 12 34 56 78 90 AB CD EF 12 34 56 78 90 AB CD EF 12 34 56 78 90 AB CD EF
  348.185100 1 123  Rx d 15 12 34 56 78 90 AB CD EF 12 34 56 78 90 AB CD EF 12 34 56 78 90 AB CD EF 12 34 56 78 90 AB CD EF 12 34 56 78 90 AB CD EF 12 34 56 78 90 AB CD EF 12 34 56 78 90 AB CD EF 12 34 56 78 90 AB CD EF
  348.185950 1 12345678x Rx d 0 
  348.186350 1 12345678x Rx d 1 12
  348.186750 1 12345678x Rx d 2 12 34
  348.187150 1 12345678x Rx d 3 12 34 56
  348.187600 1 12345678x Rx d 4 12 34 56 78
  348.188100 1 12345678x Rx d 5 12 34 56 78 90
  348.189250 1 12345678x Rx d 6 12 34 56 78 90 AB
  348.189800 1 12345678x Rx d 7 12 34 56 78 90 AB CD
  348.190350 1 12345678x Rx d 8 12 34 56 78 90 AB CD EF
  348.191100 1 12345678x Rx d 9 12 34 56 78 90 AB CD EF 12 34 56 78
  348.191950 1 12345678x Rx d 10 12 34 56 78 90 AB CD EF 12 34 56 78 90 AB CD EF
  348.192900 1 12345678x Rx d 11 12 34 56 78 90 AB CD EF 12 34 56 78 90 AB CD EF 12 34 56 78
  348.194650 1 12345678x Rx d 12 12 34 56 78 90 AB CD EF 12 34 56 78 90 AB CD EF 12 34 56 78 90 AB CD EF
  348.196000 1 12345678x Rx d 13 12 34 56 78 90 AB CD EF 12 34 56 78 90 AB CD EF 12 34 56 78 90 AB CD EF 12 34 56 78 90 AB CD EF
  348.197900 1 12345678x Rx d 14 12 34 56 78 90 AB CD EF 12 34 56 78 90 AB CD EF 12 34 56 78 90 AB CD EF 12 34 56 78 90 AB CD EF 12 34 56 78 90 AB CD EF 12 34 56 78 90 AB CD EF
  348.200300 1 12345678x Rx d 15 12 34 56 78 90 AB CD EF 12 34 56 78 90 AB CD EF 12 34 56 78 90 AB CD EF 12 34 56 78 90 AB CD EF 12 34 56 78 90 AB CD EF 12 34 56 78 90 AB CD EF 12 34 56 78 90 AB CD EF 12 34 56 78 90 AB CD EF
  348.200450 1 123  Rx d 0 
  348.200600 1 123  Rx d 1 12
  348.201050 1 123  Rx d 2 12 34
  348.201250 1 123  Rx d 3 12 34 56
  348.201400 1 123  Rx d 4 12 34 56 78
  348.201600 1 123  Rx d 5 12 34 56 78 90
  348.201800 1 123  Rx d 6 12 34 56 78 90 AB
  348.202000 1 123  Rx d 7 12 34 56 78 90 AB CD
  348.202500 1 123  Rx d 8 12 34 56 78 90 AB CD EF
  348.202750 1 123  Rx d 9 12 34 56 78 90 AB CD EF 12 34 56 78
  348.203000 1 123  Rx d 10 12 34 56 78 90 AB CD EF 12 34 56 78 90 AB CD EF
  348.203300 1 123  Rx d 11 12 34 56 78 90 AB CD EF 12 34 56 78 90 AB CD EF 12 34 56 78
  348.203650 1 123  Rx d 12 12 34 56 78 90 AB CD EF 12 34 56 78 90 AB CD EF 12 34 56 78 90 AB CD EF
  348.204050 1 123  Rx d 13 12 34 56 78 90 AB CD EF 12 34 56 78 90 AB CD EF 12 34 56 78 90 AB CD EF 12 34 56 78 90 AB CD EF
  348.204950 1 123  Rx d 14 12 34 56 78 90 AB CD EF 12 34 56 78 90 AB CD EF 12 34 56 78 90 AB CD EF 12 34 56 78 90 AB CD EF 12 34 56 78 90 AB CD EF 12 34 56 78 90 AB CD EF
  348.205600 1 123  Rx d 15 12 34 56 78 90 AB CD EF 12 34 56 78 90 AB CD EF 12 34 56 78 90 AB CD EF 12 34 56 78 90 AB CD EF 12 34 56 78 90 AB CD EF 12 34 56 78 90 AB CD EF 12 34 56 78 90 AB CD EF 12 34 56 78 90 AB CD EF
  348.205850 1 12345678x Rx d 0 
  348.206050 1 12345678x Rx d 1 12
  348.206300 1 12345678x Rx d 2 12 34
  348.206550 1 12345678x Rx d 3 12 34 56
  348.207050 1 12345678x Rx d 4 12 34 56 78
  348.207300 1 12345678x Rx d 5 12 34 56 78 90
  348.207600 1 12345678x Rx d 6 12 34 56 78 90 AB
  348.207900 1 12345678x Rx d 7 12 34 56 78 90 AB CD
  348.208150 1 12345678x Rx d 8 12 34 56 78 90 AB CD EF
  348.208500 1 12345678x Rx d 9 12 34 56 78 90 AB CD EF 12 34 56 78
  348.209100 1 12345678x Rx d 10 12 34 56 78 90 AB CD EF 12 34 56 78 90 AB CD EF
  348.209500 1 12345678x Rx d 11 12 34 56 78 90 AB CD EF 12 34 56 78 90 AB CD EF 12 34 56 78
  348.209950 1 12345678x Rx d 12 12 34 56 78 90 AB CD EF 12 34 56 78 90 AB CD EF 12 34 56 78 90 AB CD EF
  348.210400 1 12345678x Rx d 13 12 34 56 78 90 AB CD EF 12 34 56 78 90 AB CD EF 12 34 56 78 90 AB CD EF 12 34 56 78 90 AB CD EF
  348.211050 1 12345678x Rx d 14 12 34 56 78 90 AB CD EF 12 34 56 78 90 AB CD EF 12 34 56 78 90 AB CD EF 12 34 56 78 90 AB CD EF 12 34 56 78 90 AB CD EF 12 34 56 78 90 AB CD EF
  348.211750 1 12345678x Rx d 15 12 34 56 78 90 AB CD EF 12 34 56 78 90 AB CD EF 12 34 56 78 90 AB CD EF 12 34 56 78 90 AB CD EF 12 34 56 78 90 AB CD EF 12 34 56 78 90 AB CD EF 12 34 56 78 90 AB CD EF 12 34 56 78 90 AB CD EF
  355.033650 2 123  Rx d 0 
  355.033850 2 123  Rx d 1 12
  355.034100 2 123  Rx d 2 12 34
  355.034400 2 123  Rx d 3 12 34 56
  355.034750 2 123  Rx d 4 12 34 56 78
  355.035050 2 123  Rx d 5 12 34 56 78 90
  355.036050 2 123  Rx d 6 12 34 56 78 90 AB
  355.036450 2 123  Rx d 7 12 34 56 78 90 AB CD
  355.036950 2 123  Rx d 8 12 34 56 78 90 AB CD EF
  355.037200 2 12345678x Rx d 0 
  355.037500 2 12345678x Rx d 1 12
  355.037850 2 12345678x Rx d 2 12 34
  355.038500 2 12345678x Rx d 3 12 34 56
  355.038900 2 12345678x Rx d 4 12 34 56 78
  355.039350 2 12345678x Rx d 5 12 34 56 78 90
  355.039850 2 12345678x Rx d 6 12 34 56 78 90 AB
  355.040500 2 12345678x Rx d 7 12 34 56 78 90 AB CD
  355.041050 2 12345678x Rx d 8 12 34 56 78 90 AB CD EF
  355.041550 2 123  Rx d 0 
  355.041850 2 123  Rx d 1 12
  355.042450 2 123  Rx d 2 12 34
  355.042800 2 123  Rx d 3 12 34 56
  355.043200 2 123  Rx d 4 12 34 56 78
  355.043750 2 123  Rx d 5 12 34 56 78 90
  355.044750 2 123  Rx d 6 12 34 56 78 90 AB
  355.045250 2 123  Rx d 7 12 34 56 78 90 AB CD
  355.045750 2 123  Rx d 8 12 34 56 78 90 AB CD EF
  355.046400 2 123  Rx d 9 12 34 56 78 90 AB CD EF 12 34 56 78
  355.047300 2 123  Rx d 10 12 34 56 78 90 AB CD EF 12 34 56 78 90 AB CD EF
  355.048500 2 123  Rx d 11 12 34 56 78 90 AB CD EF 12 34 56 78 90 AB CD EF 12 34 56 78
  355.049850 2 123  Rx d 12 12 34 56 78 90 AB CD EF 12 34 56 78 90 AB CD EF 12 34 56 78 90 AB CD EF
  355.051150 2 123  Rx d 13 12 34 56 78 90 AB CD EF 12 34 56 78 90 AB CD EF 12 34 56 78 90 AB CD EF 12 34 56 78 90 AB CD EF
  355.053700 2 123  Rx d 14 12 34 56 78 90 AB CD EF 12 34 56 78 90 AB CD EF 12 34 56 78 90 AB CD EF 12 34 56 78 90 AB CD EF 12 34 56 78 90 AB CD EF 12 34 56 78 90 AB CD EF
  355.056450 2 123  Rx d 15 12 34 56 78 90 AB CD EF 12 34 56 78 90 AB CD EF 12 34 56 78 90 AB CD EF 12 34 56 78 90 AB CD EF 12 34 56 78 90 AB CD EF 12 34 56 78 90 AB CD EF 12 34 56 78 90 AB CD EF 12 34 56 78 90 AB CD EF
  355.056750 2 12345678x Rx d 0 
  355.057100 2 12345678x Rx d 1 12
  355.057750 2 12345678x Rx d 2 12 34
  355.058200 2 12345678x Rx d 3 12 34 56
  355.058650 2 12345678x Rx d 4 12 34 56 78
  355.059150 2 12345678x Rx d 5 12 34 56 78 90
  355.059650 2 12345678x Rx d 6 12 34 56 78 90 AB
  355.060200 2 12345678x Rx d 7 12 34 56 78 90 AB CD
  355.061050 2 12345678x Rx d 8 12 34 56 78 90 AB CD EF
  355.061750 2 12345678x Rx d 9 12 34 56 78 90 AB CD EF 12 34 56 78
  355.062600 2 12345678x Rx d 10 12 34 56 78 90 AB CD EF 12 34 56 78 90 AB CD EF
  355.063600 2 12345678x Rx d 11 12 34 56 78 90 AB CD EF 12 34 56 78 90 AB CD EF 12 34 56 78
  355.064750 2 12345678x Rx d 12 12 34 56 78 90 AB CD EF 12 34 56 78 90 AB CD EF 12 34 56 78 90 AB CD EF
  355.066550 2 12345678x Rx d 13 12 34 56 78 90 AB CD EF 12 34 56 78 90 AB CD EF 12 34 56 78 90 AB CD EF 12 34 56 78 90 AB CD EF
  355.069200 2 12345678x Rx d 14 12 34 56 78 90 AB CD EF 12 34 56 78 90 AB CD EF 12 34 56 78 90 AB CD EF 12 34 56 78 90 AB CD EF 12 34 56 78 90 AB CD EF 12 34 56 78 90 AB CD EF
  355.071850 2 12345678x Rx d 15 12 34 56 78 90 AB CD EF 12 34 56 78 90 AB CD EF 12 34 56 78 90 AB CD EF 12 34 56 78 90 AB CD EF 12 34 56 78 90 AB CD EF 12 34 56 78 90 AB CD EF 12 34 56 78 90 AB CD EF 12 34 56 78 90 AB CD EF
  355.072000 2 123  Rx d 0 
  355.072150 2 123  Rx d 1 12
  355.072300 2 123  Rx d 2 12 34
  355.072500 2 123  Rx d 3 12 34 56
  355.073500 2 123  Rx d 4 12 34 56 78
  355.073700 2 123  Rx d 5 12 34 56 78 90
  355.073900 2 123  Rx d 6 12 34 56 78 90 AB
  355.074100 2 123  Rx d 7 12 34 56 78 90 AB CD
  355.074300 2 123  Rx d 8 12 34 56 78 90 AB CD EF
  355.074550 2 123  Rx d 9 12 34 56 78 90 AB CD EF 12 34 56 78
  355.075750 2 123  Rx d 10 12 34 56 78 90 AB CD EF 12 34 56 78 90 AB CD EF
  355.076050 2 123  Rx d 11 12 34 56 78 90 AB CD EF 12 34 56 78 90 AB CD EF 12 34 56 78
  355.076400 2 123  Rx d 12 12 34 56 78 90 AB CD EF 12 34 56 78 90 AB CD EF 12 34 56 78 90 AB CD EF
  355.076800 2 123  Rx d 13 12 34 56 78 90 AB CD EF 12 34 56 78 90 AB CD EF 12 34 56 78 90 AB CD EF 12 34 56 78 90 AB CD EF
  355.077350 2 123  Rx d 14 12 34 56 78 90 AB CD EF 12 34 56 78 90 AB CD EF 12 34 56 78 90 AB CD EF 12 34 56 78 90 AB CD EF 12 34 56 78 90 AB CD EF 12 34 56 78 90 AB CD EF
  355.078000 2 123  Rx d 15 12 34 56 78 90 AB CD EF 12 34 56 78 90 AB CD EF 12 34 56 78 90 AB CD EF 12 34 56 78 90 AB CD EF 12 34 56 78 90 AB CD EF 12 34 56 78 90 AB CD EF 12 34 56 78 90 AB CD EF 12 34 56 78 90 AB CD EF
  355.078850 2 12345678x Rx d 0 
  355.079050 2 12345678x Rx d 1 12
  355.079300 2 12345678x Rx d 2 12 34
  355.079550 2 12345678x Rx d 3 12 34 56
  355.079800 2 12345678x Rx d 4 12 34 56 78
  355.080050 2 12345678x Rx d 5 12 34 56 78 90
  355.081050 2 12345678x Rx d 6 12 34 56 78 90 AB
  355.081350 2 12345678x Rx d 7 12 34 56 78 90 AB CD
  355.081600 2 12345678x Rx d 8 12 34 56 78 90 AB CD EF
  355.081950 2 12345678x Rx d 9 12 34 56 78 90 AB CD EF 12 34 56 78
  355.082300 2 12345678x Rx d 10 12 34 56 78 90 AB CD EF 12 34 56 78 90 AB CD EF
  355.082650 2 12345678x Rx d 11 12 34 56 78 90 AB CD EF 12 34 56 78 90 AB CD EF 12 34 56 78
  355.083850 2 12345678x Rx d 12 12 34 56 78 90 AB CD EF 12 34 56 78 90 AB CD EF 12 34 56 78 90 AB CD EF
  355.084350 2 12345678x Rx d 13 12 34 56 78 90 AB CD EF 12 34 56 78 90 AB CD EF 12 34 56 78 90 AB CD EF 12 34 56 78 90 AB CD EF
  355.084950 2 12345678x Rx d 14 12 34 56 78 90 AB CD EF 12 34 56 78 90 AB CD EF 12 34 56 78 90 AB CD EF 12 34 56 78 90 AB CD EF 12 34 56 78 90 AB CD EF 12 34 56 78 90 AB CD EF
  355.085700 2 12345678x Rx d 15 12 34 56 78 90 AB CD EF 12 34 56 78 90 AB CD EF 12 34 56 78 90 AB CD EF 12 34 56 78 90 AB CD EF 12 34 56 78 90 AB CD EF 12 34 56 78 90 AB CD EF 12 34 56 78 90 AB CD EF 12 34 56 78 90 AB CD EF
